
T2BF0 000:060 SEGGER J-Link V6.14b Log File (0001ms, 0033ms total)
T2BF0 000:060 DLL Compiled: Mar  9 2017 08:46:04 (0001ms, 0033ms total)
T2BF0 000:060 Logging started @ 2020-06-29 13:47 (0001ms, 0033ms total)
T2BF0 000:061 JLINK_SetWarnOutHandler(...) (0000ms, 0033ms total)
T2BF0 000:061 JLINK_OpenEx(...)
Firmware: J-Link ARM-OB STM32 compiled Aug 22 2012 19:52:04
Hardware: V7.00
S/N: 20090928
Feature(s): RDI,FlashDL,FlashBP,JFlash,GDBFullWEBSRV Webserver running on local port 19080 (0020ms, 0053ms total)
T2BF0 000:061   returns O.K. (0020ms, 0053ms total)
T2BF0 000:081 JLINK_SetErrorOutHandler(...) (0000ms, 0053ms total)
T2BF0 000:081 JLINK_ExecCommand("ProjectFile = "C:\Users\Bobby\Documents\GitHub\LoRa_STPM32\MDK-ARM\JLinkSettings.ini"", ...).   returns 0x00 (0107ms, 0160ms total)
T2BF0 000:188 JLINK_ExecCommand("Device = STM32L433CCUx", ...). Device "STM32L433CC" selected.  returns 0x00 (0002ms, 0162ms total)
T2BF0 000:190 JLINK_ExecCommand("DisableConnectionTimeout", ...).   returns 0x01 (0000ms, 0162ms total)
T2BF0 000:190 JLINK_GetHardwareVersion()  returns 0x11170 (0000ms, 0162ms total)
T2BF0 000:190 JLINK_GetDLLVersion()  returns 61402 (0000ms, 0162ms total)
T2BF0 000:190 JLINK_GetFirmwareString(...) (0000ms, 0162ms total)
T2BF0 000:190 JLINK_GetDLLVersion()  returns 61402 (0000ms, 0162ms total)
T2BF0 000:190 JLINK_GetCompileDateTime() (0000ms, 0162ms total)
T2BF0 000:190 JLINK_GetFirmwareString(...) (0000ms, 0162ms total)
T2BF0 000:190 JLINK_GetHardwareVersion()  returns 0x11170 (0000ms, 0162ms total)
T2BF0 000:190 JLINK_TIF_Select(JLINKARM_TIF_SWD)  returns 0x00 (0001ms, 0163ms total)
T2BF0 000:191 JLINK_SetSpeed(500) (0000ms, 0163ms total)
T2BF0 000:191 JLINK_GetId() >0x108 TIF>Found SWD-DP with ID 0x2BA01477 >0x0D TIF> >0x28 TIF> >0x0D TIF> >0x28 TIF> >0x0D TIF> >0x28 TIF> >0x0D TIF> >0x28 TIF> >0x0D TIF> >0x21 TIF> >0x0D TIF> >0x28 TIF> >0x0D TIF> >0x28 TIF> >0x0D TIF> >0x28 TIF> >0x0D TIF> >0x21 TIF> >0x0D TIF> >0x21 TIF> >0x0D TIF> >0x28 TIF> >0x0D TIF> >0x21 TIF> >0x0D TIF> >0x21 TIF> >0x0D TIF> >0x28 TIF> >0x0D TIF> >0x21 TIF> >0x0D TIF> >0x21 TIF> >0x0D TIF> >0x28 TIF> >0x0D TIF> >0x21 TIF> >0x0D TIF> >0x21 TIF> >0x0D TIF>
 >0x28 TIF> >0x0D TIF> >0x21 TIF> >0x0D TIF> >0x21 TIF> >0x0D TIF> >0x28 TIF> >0x0D TIF> >0x21 TIF> >0x0D TIF> >0x21 TIF> >0x0D TIF> >0x28 TIF> >0x0D TIF> >0x21 TIF> >0x0D TIF> >0x21 TIF> >0x0D TIF> >0x28 TIF> >0x0D TIF> >0x21 TIF> >0x0D TIF> >0x21 TIF> >0x0D TIF> >0x28 TIF> >0x0D TIF> >0x21 TIF> >0x0D TIF> >0x21 TIF> >0x0D TIF> >0x28 TIF> >0x0D TIF> >0x21 TIF> >0x0D TIF> >0x21 TIF> >0x0D TIF> >0x28 TIF> >0x0D TIF> >0x21 TIF> >0x0D TIF> >0x21 TIF> >0x108 TIF>Found SWD-DP with ID 0x2BA01477 >0x0D TIF>
 >0x28 TIF> >0x0D TIF> >0x28 TIF> >0x0D TIF> >0x28 TIF> >0x0D TIF> >0x28 TIF> >0x0D TIF> >0x21 TIF> >0x0D TIF> >0x28 TIF> >0x0D TIF> >0x28 TIF> >0x0D TIF> >0x21 TIF> >0x0D TIF> >0x21 TIF> >0x0D TIF> >0x21 TIF>AP-IDR: 0x24770011, Type: AHB-APAHB-AP ROM: 0xE00FF000 (Base addr. of first ROM table) >0x0D TIF> >0x28 TIF> >0x0D TIF> >0x28 TIF> >0x0D TIF> >0x28 TIF> >0x0D TIF> >0x21 TIF> >0x0D TIF> >0x21 TIF> >0x0D TIF> >0x28 TIF> >0x0D TIF> >0x21 TIF> >0x0D TIF> >0x21 TIF>Found Cortex-M4 r0p1, Little endian.
 -- CPU_ReadMem(4 bytes @ 0xE000EDF0) -- CPU_WriteMem(4 bytes @ 0xE000EDF0) -- CPU_ReadMem(4 bytes @ 0xE0002000)FPUnit: 6 code (BP) slots and 2 literal slots -- CPU_ReadMem(4 bytes @ 0xE000EDFC) -- CPU_WriteMem(4 bytes @ 0xE000EDFC) -- CPU_ReadMem(4 bytes @ 0xE0001000) -- CPU_WriteMem(4 bytes @ 0xE0001000) -- CPU_ReadMem(4 bytes @ 0xE000ED88) -- CPU_WriteMem(4 bytes @ 0xE000ED88) -- CPU_ReadMem(4 bytes @ 0xE000ED88) -- CPU_WriteMem(4 bytes @ 0xE000ED88)CoreSight components:ROMTbl 0 @ E00FF000
 -- CPU_ReadMem(16 bytes @ 0xE00FF000) -- CPU_ReadMem(16 bytes @ 0xE000EFF0) -- CPU_ReadMem(16 bytes @ 0xE000EFE0)ROMTbl 0 [0]: FFF0F000, CID: B105E00D, PID: 000BB00C SCS -- CPU_ReadMem(16 bytes @ 0xE0001FF0) -- CPU_ReadMem(16 bytes @ 0xE0001FE0)ROMTbl 0 [1]: FFF02000, CID: B105E00D, PID: 003BB002 DWT -- CPU_ReadMem(16 bytes @ 0xE0002FF0) -- CPU_ReadMem(16 bytes @ 0xE0002FE0)ROMTbl 0 [2]: FFF03000, CID: B105E00D, PID: 002BB003 FPB -- CPU_ReadMem(16 bytes @ 0xE0000FF0)
 -- CPU_ReadMem(16 bytes @ 0xE0000FE0)ROMTbl 0 [3]: FFF01000, CID: B105E00D, PID: 003BB001 ITM -- CPU_ReadMem(16 bytes @ 0xE00FF010) -- CPU_ReadMem(16 bytes @ 0xE0040FF0) -- CPU_ReadMem(16 bytes @ 0xE0040FE0)ROMTbl 0 [4]: FFF41000, CID: B105900D, PID: 000BB9A1 TPIU -- CPU_ReadMem(16 bytes @ 0xE0041FF0) -- CPU_ReadMem(16 bytes @ 0xE0041FE0)ROMTbl 0 [5]: FFF42000, CID: B105900D, PID: 000BB925 ETM >0x0D TIF> >0x21 TIF>  returns 0x2BA01477 (0088ms, 0251ms total)
T2BF0 000:279 JLINK_GetDLLVersion()  returns 61402 (0000ms, 0251ms total)
T2BF0 000:279 JLINK_CORE_GetFound()  returns 0xE0000FF (0000ms, 0251ms total)
T2BF0 000:279 JLINK_GetDebugInfo(0x100 = JLINKARM_ROM_TABLE_ADDR_INDEX) -- Value=0xE00FF000  returns 0x00 (0000ms, 0251ms total)
T2BF0 000:279 JLINK_GetDebugInfo(0x100 = JLINKARM_ROM_TABLE_ADDR_INDEX) -- Value=0xE00FF000  returns 0x00 (0000ms, 0251ms total)
T2BF0 000:279 JLINK_GetDebugInfo(0x101 = JLINKARM_DEBUG_INFO_ETM_ADDR_INDEX) -- Value=0xE0041000  returns 0x00 (0000ms, 0251ms total)
T2BF0 000:279 JLINK_GetDebugInfo(0x102 = JLINKARM_DEBUG_INFO_MTB_ADDR_INDEX) -- Value=0x00000000  returns 0x00 (0001ms, 0252ms total)
T2BF0 000:280 JLINK_GetDebugInfo(0x103 = JLINKARM_DEBUG_INFO_TPIU_ADDR_INDEX) -- Value=0xE0040000  returns 0x00 (0000ms, 0252ms total)
T2BF0 000:280 JLINK_GetDebugInfo(0x104 = JLINKARM_DEBUG_INFO_ITM_ADDR_INDEX) -- Value=0xE0000000  returns 0x00 (0000ms, 0252ms total)
T2BF0 000:280 JLINK_GetDebugInfo(0x105 = JLINKARM_DEBUG_INFO_DWT_ADDR_INDEX) -- Value=0xE0001000  returns 0x00 (0000ms, 0252ms total)
T2BF0 000:280 JLINK_GetDebugInfo(0x106 = JLINKARM_DEBUG_INFO_FPB_ADDR_INDEX) -- Value=0xE0002000  returns 0x00 (0000ms, 0252ms total)
T2BF0 000:280 JLINK_GetDebugInfo(0x107 = JLINKARM_DEBUG_INFO_NVIC_ADDR_INDEX) -- Value=0xE000E000  returns 0x00 (0000ms, 0252ms total)
T2BF0 000:280 JLINK_GetDebugInfo(0x10C = JLINKARM_DEBUG_INFO_DBG_ADDR_INDEX) -- Value=0xE000EDF0  returns 0x00 (0000ms, 0252ms total)
T2BF0 000:280 JLINK_ReadMemU32(0xE000EF40, 0x0001 Items, ...) -- CPU is running -- CPU_ReadMem(4 bytes @ 0xE000EF40) - Data: 21 00 11 10  returns 0x01 (0002ms, 0254ms total)
T2BF0 000:282 JLINK_ReadMemU32(0xE000EF44, 0x0001 Items, ...) -- CPU is running -- CPU_ReadMem(4 bytes @ 0xE000EF44) - Data: 11 00 00 11  returns 0x01 (0001ms, 0255ms total)
T2BF0 000:283 JLINK_ReadMemU32(0xE000ED00, 0x0001 Items, ...) -- CPU is running -- CPU_ReadMem(4 bytes @ 0xE000ED00) - Data: 41 C2 0F 41  returns 0x01 (0002ms, 0257ms total)
T2BF0 000:285 JLINK_SetResetType(JLINKARM_CM3_RESET_TYPE_NORMAL)  returns JLINKARM_CM3_RESET_TYPE_NORMAL (0000ms, 0257ms total)
T2BF0 000:285 JLINK_Reset() -- CPU is running -- CPU_WriteMem(4 bytes @ 0xE000EDF0) -- CPU is running -- CPU_WriteMem(4 bytes @ 0xE000EDFC) >0x35 TIF> -- CPU is running -- CPU_WriteMem(4 bytes @ 0xE000ED0C) >0x0D TIF> >0x28 TIF> -- CPU is running -- CPU_ReadMem(4 bytes @ 0xE000EDF0) -- CPU is running -- CPU_ReadMem(4 bytes @ 0xE000EDF0) -- CPU is running -- CPU_WriteMem(4 bytes @ 0xE000EDF0) -- CPU is running -- CPU_WriteMem(4 bytes @ 0xE000EDFC) -- CPU is running -- CPU_ReadMem(4 bytes @ 0xE000EDF0)
 -- CPU_WriteMem(4 bytes @ 0xE0002000) -- CPU_ReadMem(4 bytes @ 0xE000EDFC) -- CPU_ReadMem(4 bytes @ 0xE0001000) (0091ms, 0348ms total)
T2BF0 000:376 JLINK_ReadReg(R15 (PC))  returns 0x08000280 (0000ms, 0348ms total)
T2BF0 000:376 JLINK_ReadReg(XPSR)  returns 0x01000000 (0000ms, 0348ms total)
T2BF0 000:376 JLINK_Halt()  returns 0x00 (0000ms, 0348ms total)
T2BF0 000:376 JLINK_IsHalted()  returns TRUE (0001ms, 0349ms total)
T2BF0 000:377 JLINK_ReadMemU32(0xE000EDF0, 0x0001 Items, ...) -- CPU_ReadMem(4 bytes @ 0xE000EDF0) - Data: 03 00 03 00  returns 0x01 (0001ms, 0349ms total)
T2BF0 000:378 JLINK_WriteU32(0xE000EDF0, 0xA05F0003) -- CPU_WriteMem(4 bytes @ 0xE000EDF0)  returns 0x00 (0002ms, 0351ms total)
T2BF0 000:380 JLINK_WriteU32(0xE000EDFC, 0x01000000) -- CPU_WriteMem(4 bytes @ 0xE000EDFC)  returns 0x00 (0002ms, 0353ms total)
T2BF0 000:382 JLINK_GetHWStatus(...)  returns 0x00 (0000ms, 0353ms total)
T2BF0 000:382 JLINK_GetNumBPUnits(Type = 0xFFFFFF00)  returns 0x06 (0000ms, 0353ms total)
T2BF0 000:382 JLINK_GetNumBPUnits(Type = 0xF0)  returns 0x2000 (0000ms, 0353ms total)
T2BF0 000:382 JLINK_GetNumWPUnits()  returns 0x04 (0000ms, 0353ms total)
T2BF0 000:382 JLINK_GetSpeed()  returns 0x1F4 (0000ms, 0353ms total)
T2BF0 000:382 JLINK_ReadMemU32(0xE000E004, 0x0001 Items, ...) -- CPU_ReadMem(4 bytes @ 0xE000E004) - Data: 02 00 00 00  returns 0x01 (0002ms, 0355ms total)
T2BF0 000:384 JLINK_ReadMemU32(0xE000E004, 0x0001 Items, ...) -- CPU_ReadMem(4 bytes @ 0xE000E004) - Data: 02 00 00 00  returns 0x01 (0002ms, 0357ms total)
T2BF0 000:386 JLINK_WriteMem(0xE0001000, 0x001C Bytes, ...) - Data: 01 00 00 00 00 00 00 00 00 00 00 00 00 00 00 00 ... -- CPU_WriteMem(28 bytes @ 0xE0001000)  returns 0x1C (0003ms, 0360ms total)
T2BF0 000:389 JLINK_ReadMem (0xE0001000, 0x001C Bytes, ...) -- CPU_ReadMem(28 bytes @ 0xE0001000) - Data: 01 00 00 40 00 00 00 00 00 00 00 00 00 00 00 00 ...  returns 0x00 (0003ms, 0363ms total)
T2BF0 000:392 JLINK_ReadReg(R15 (PC))  returns 0x08000280 (0000ms, 0363ms total)
T2BF0 000:392 JLINK_ReadReg(XPSR)  returns 0x01000000 (0000ms, 0363ms total)
T2BF0 000:396 JLINK_ReadMem (0xE0001004, 0x0004 Bytes, ...) - Data: 00 00 00 00  returns 0x00 (0000ms, 0363ms total)
T2BF0 000:450 JLINK_ReadMem (0x08000000, 0x1000 Bytes, ...) -- CPU_ReadMem(4096 bytes @ 0x08000000) -- Updating C cache (4096 bytes @ 0x08000000) -- Read from C cache (4096 bytes @ 0x08000000) - Data: A0 83 00 20 81 02 00 08 CD 31 00 08 3D 2E 00 08 ...  returns 0x00 (0193ms, 0556ms total)
T2BF0 000:643 JLINK_ReadMem (0x08001000, 0x1000 Bytes, ...) -- CPU_ReadMem(4096 bytes @ 0x08001000) -- Updating C cache (4096 bytes @ 0x08001000) -- Read from C cache (4096 bytes @ 0x08001000) - Data: 26 D1 60 6C 68 B1 B0 F5 00 0F 03 D0 B0 F5 40 0F ...  returns 0x00 (0193ms, 0749ms total)
T2BF0 000:837 JLINK_ReadMem (0x08002000, 0x1000 Bytes, ...) -- CPU_ReadMem(4096 bytes @ 0x08002000) -- Updating C cache (4096 bytes @ 0x08002000) -- Read from C cache (4096 bytes @ 0x08002000) - Data: 40 F0 40 00 20 66 03 E0 03 E0 20 46 FF F7 56 FF ...  returns 0x00 (0193ms, 0942ms total)
T2BF0 001:030 JLINK_ReadMem (0x08003000, 0x1000 Bytes, ...) -- CPU_ReadMem(4096 bytes @ 0x08003000) -- Updating C cache (4096 bytes @ 0x08003000) -- Read from C cache (4096 bytes @ 0x08003000) - Data: 02 A9 4F F0 90 40 FD F7 EB FC 81 20 02 90 01 20 ...  returns 0x00 (0193ms, 1135ms total)
T2BF0 001:223 JLINK_ReadMem (0x08004000, 0x1000 Bytes, ...) -- CPU_ReadMem(4096 bytes @ 0x08004000) -- Updating C cache (4096 bytes @ 0x08004000) -- Read from C cache (4096 bytes @ 0x08004000) - Data: FE F7 2C FD 10 BD 00 00 48 04 00 20 10 B5 04 46 ...  returns 0x00 (0193ms, 1328ms total)
T2BF0 001:417 JLINK_ReadMem (0x08005000, 0x1000 Bytes, ...) -- CPU_ReadMem(4096 bytes @ 0x08005000) -- Updating C cache (4096 bytes @ 0x08005000) -- Read from C cache (4096 bytes @ 0x08005000) - Data: 1B 48 FD F7 3F FE 00 22 01 21 1A 48 FB F7 CC FD ...  returns 0x00 (0193ms, 1521ms total)
T2BF0 001:611 JLINK_ReadMem (0x08006000, 0x0D6C Bytes, ...) -- CPU_ReadMem(3456 bytes @ 0x08006000) -- Updating C cache (3456 bytes @ 0x08006000) -- Read from C cache (3436 bytes @ 0x08006000) - Data: 28 46 00 94 FF F7 4B FA 20 46 BD E8 F8 83 00 00 ...  returns 0x00 (0162ms, 1683ms total)
T2BF0 001:828 JLINK_SetResetType(JLINKARM_CM3_RESET_TYPE_NORMAL)  returns JLINKARM_CM3_RESET_TYPE_NORMAL (0000ms, 1683ms total)
T2BF0 001:828 JLINK_Reset() -- CPU_WriteMem(4 bytes @ 0xE000EDF0) -- CPU_WriteMem(4 bytes @ 0xE000EDFC) >0x35 TIF> -- CPU_WriteMem(4 bytes @ 0xE000ED0C) >0x0D TIF> >0x28 TIF> -- CPU_ReadMem(4 bytes @ 0xE000EDF0) -- CPU_ReadMem(4 bytes @ 0xE000EDF0) -- CPU_WriteMem(4 bytes @ 0xE000EDF0) -- CPU_WriteMem(4 bytes @ 0xE000EDFC) -- CPU is running -- CPU_ReadMem(4 bytes @ 0xE000EDF0) -- CPU_WriteMem(4 bytes @ 0xE0002000) -- CPU_ReadMem(4 bytes @ 0xE000EDFC) -- CPU_ReadMem(4 bytes @ 0xE0001000)
 (0091ms, 1774ms total)
T2BF0 001:919 JLINK_ReadReg(R15 (PC))  returns 0x08000280 (0000ms, 1774ms total)
T2BF0 001:919 JLINK_ReadReg(XPSR)  returns 0x01000000 (0000ms, 1774ms total)
T2BF0 001:920 JLINK_ReadMem (0x08000280, 0x003C Bytes, ...) -- CPU_ReadMem(64 bytes @ 0x08000280) -- Updating C cache (64 bytes @ 0x08000280) -- Read from C cache (60 bytes @ 0x08000280) - Data: 06 48 80 47 06 48 00 47 FE E7 FE E7 FE E7 FE E7 ...  returns 0x00 (0004ms, 1778ms total)
T4508 003:318 JLINK_SetBPEx(Addr = 0x08004FC8, Type = 0xFFFFFFF2)  returns 0x00000001 (0000ms, 1778ms total)
T4508 003:318 JLINK_SetBPEx(Addr = 0x08004D7A, Type = 0xFFFFFFF2)  returns 0x00000002 (0000ms, 1778ms total)
T4508 003:318 JLINK_SetBPEx(Addr = 0x0800504E, Type = 0xFFFFFFF2)  returns 0x00000003 (0000ms, 1778ms total)
T4508 003:318 JLINK_SetBPEx(Addr = 0x08005040, Type = 0xFFFFFFF2)  returns 0x00000004 (0000ms, 1778ms total)
T4508 003:318 JLINK_Go() -- CPU_WriteMem(4 bytes @ 0xE0002000) -- CPU_WriteMem(4 bytes @ 0xE0002000) -- CPU_WriteMem(4 bytes @ 0xE0002000) -- CPU_WriteMem(4 bytes @ 0xE0002000) -- CPU_ReadMem(4 bytes @ 0xE0001000) -- CPU_WriteMem(4 bytes @ 0xE0002008) -- CPU_WriteMem(4 bytes @ 0xE000200C) -- CPU_WriteMem(4 bytes @ 0xE0002010) -- CPU_WriteMem(4 bytes @ 0xE0002014) -- CPU_WriteMem(4 bytes @ 0xE0002018) -- CPU_WriteMem(4 bytes @ 0xE000201C) -- CPU_WriteMem(4 bytes @ 0xE0001004) (0022ms, 1800ms total)
T4508 003:441 JLINK_IsHalted()  returns TRUE (0013ms, 1813ms total)
T4508 003:455 JLINK_Halt()  returns 0x00 (0000ms, 1800ms total)
T4508 003:455 JLINK_IsHalted()  returns TRUE (0000ms, 1800ms total)
T4508 003:455 JLINK_IsHalted()  returns TRUE (0000ms, 1800ms total)
T4508 003:455 JLINK_IsHalted()  returns TRUE (0000ms, 1800ms total)
T4508 003:455 JLINK_ReadReg(R15 (PC))  returns 0x08004FC8 (0000ms, 1800ms total)
T4508 003:455 JLINK_ReadReg(XPSR)  returns 0x61000000 (0000ms, 1800ms total)
T4508 003:455 JLINK_ClrBPEx(BPHandle = 0x00000001)  returns 0x00 (0000ms, 1800ms total)
T4508 003:455 JLINK_ClrBPEx(BPHandle = 0x00000002)  returns 0x00 (0000ms, 1800ms total)
T4508 003:455 JLINK_ClrBPEx(BPHandle = 0x00000003)  returns 0x00 (0000ms, 1800ms total)
T4508 003:455 JLINK_ClrBPEx(BPHandle = 0x00000004)  returns 0x00 (0000ms, 1800ms total)
T4508 003:455 JLINK_ReadMemU32(0xE000ED30, 0x0001 Items, ...) -- CPU_ReadMem(4 bytes @ 0xE000ED30) - Data: 03 00 00 00  returns 0x01 (0002ms, 1802ms total)
T4508 003:457 JLINK_ReadMemU32(0xE0001028, 0x0001 Items, ...) -- CPU_ReadMem(4 bytes @ 0xE0001028) - Data: 00 00 00 00  returns 0x01 (0003ms, 1805ms total)
T4508 003:460 JLINK_ReadMemU32(0xE0001038, 0x0001 Items, ...) -- CPU_ReadMem(4 bytes @ 0xE0001038) - Data: 00 02 00 00  returns 0x01 (0001ms, 1806ms total)
T4508 003:461 JLINK_ReadMemU32(0xE0001048, 0x0001 Items, ...) -- CPU_ReadMem(4 bytes @ 0xE0001048) - Data: 00 00 00 00  returns 0x01 (0003ms, 1809ms total)
T4508 003:464 JLINK_ReadMemU32(0xE0001058, 0x0001 Items, ...) -- CPU_ReadMem(4 bytes @ 0xE0001058) - Data: 00 00 00 00  returns 0x01 (0001ms, 1810ms total)
T4508 003:465 JLINK_ReadReg(R0)  returns 0x08004FC9 (0000ms, 1810ms total)
T4508 003:465 JLINK_ReadReg(R1)  returns 0x200083A0 (0001ms, 1811ms total)
T4508 003:466 JLINK_ReadReg(R2)  returns 0x00000000 (0000ms, 1811ms total)
T4508 003:466 JLINK_ReadReg(R3)  returns 0x08004119 (0000ms, 1811ms total)
T4508 003:466 JLINK_ReadReg(R4)  returns 0x08006CC0 (0000ms, 1811ms total)
T4508 003:466 JLINK_ReadReg(R5)  returns 0x08006CC0 (0000ms, 1811ms total)
T4508 003:466 JLINK_ReadReg(R6)  returns 0x00000000 (0000ms, 1811ms total)
T4508 003:466 JLINK_ReadReg(R7)  returns 0x00000000 (0000ms, 1811ms total)
T4508 003:466 JLINK_ReadReg(R8)  returns 0x00000000 (0000ms, 1811ms total)
T4508 003:466 JLINK_ReadReg(R9)  returns 0x00000000 (0000ms, 1811ms total)
T4508 003:466 JLINK_ReadReg(R10)  returns 0x00000000 (0000ms, 1811ms total)
T4508 003:466 JLINK_ReadReg(R11)  returns 0x00000000 (0000ms, 1811ms total)
T4508 003:466 JLINK_ReadReg(R12)  returns 0x00000000 (0000ms, 1811ms total)
T4508 003:466 JLINK_ReadReg(R13 (SP))  returns 0x200083A0 (0000ms, 1811ms total)
T4508 003:466 JLINK_ReadReg(R14)  returns 0x080007AD (0000ms, 1811ms total)
T4508 003:466 JLINK_ReadReg(R15 (PC))  returns 0x08004FC8 (0000ms, 1811ms total)
T4508 003:466 JLINK_ReadReg(XPSR)  returns 0x61000000 (0000ms, 1811ms total)
T4508 003:466 JLINK_ReadReg(MSP)  returns 0x200083A0 (0000ms, 1811ms total)
T4508 003:466 JLINK_ReadReg(PSP)  returns 0x00000000 (0000ms, 1811ms total)
T4508 003:466 JLINK_ReadReg(CFBP)  returns 0x00000000 (0000ms, 1811ms total)
T4508 003:466 JLINK_ReadReg(FPSCR)  returns 0x00000000 (0022ms, 1833ms total)
T4508 003:488 JLINK_ReadReg(FPS0)  returns 0x00000000 (0000ms, 1833ms total)
T4508 003:488 JLINK_ReadReg(FPS1)  returns 0x00000000 (0000ms, 1833ms total)
T4508 003:488 JLINK_ReadReg(FPS2)  returns 0x00000000 (0000ms, 1833ms total)
T4508 003:488 JLINK_ReadReg(FPS3)  returns 0x00000000 (0000ms, 1833ms total)
T4508 003:488 JLINK_ReadReg(FPS4)  returns 0x00000000 (0000ms, 1833ms total)
T4508 003:488 JLINK_ReadReg(FPS5)  returns 0x00000000 (0000ms, 1833ms total)
T4508 003:488 JLINK_ReadReg(FPS6)  returns 0x00000000 (0000ms, 1833ms total)
T4508 003:489 JLINK_ReadReg(FPS7)  returns 0x00000000 (0000ms, 1833ms total)
T4508 003:489 JLINK_ReadReg(FPS8)  returns 0x00000000 (0000ms, 1833ms total)
T4508 003:489 JLINK_ReadReg(FPS9)  returns 0x00000000 (0000ms, 1833ms total)
T4508 003:489 JLINK_ReadReg(FPS10)  returns 0x00000000 (0000ms, 1833ms total)
T4508 003:489 JLINK_ReadReg(FPS11)  returns 0x00000000 (0000ms, 1833ms total)
T4508 003:489 JLINK_ReadReg(FPS12)  returns 0x00000000 (0000ms, 1833ms total)
T4508 003:489 JLINK_ReadReg(FPS13)  returns 0x00000000 (0000ms, 1833ms total)
T4508 003:489 JLINK_ReadReg(FPS14)  returns 0x00000000 (0000ms, 1833ms total)
T4508 003:489 JLINK_ReadReg(FPS15)  returns 0x00000000 (0000ms, 1833ms total)
T4508 003:489 JLINK_ReadReg(FPS16)  returns 0x00000000 (0000ms, 1833ms total)
T4508 003:489 JLINK_ReadReg(FPS17)  returns 0x00000000 (0000ms, 1833ms total)
T4508 003:489 JLINK_ReadReg(FPS18)  returns 0x00000000 (0000ms, 1833ms total)
T4508 003:489 JLINK_ReadReg(FPS19)  returns 0x00000000 (0000ms, 1833ms total)
T4508 003:489 JLINK_ReadReg(FPS20)  returns 0x00000000 (0000ms, 1833ms total)
T4508 003:489 JLINK_ReadReg(FPS21)  returns 0x00000000 (0000ms, 1833ms total)
T4508 003:489 JLINK_ReadReg(FPS22)  returns 0x00000000 (0000ms, 1833ms total)
T4508 003:489 JLINK_ReadReg(FPS23)  returns 0x00000000 (0000ms, 1833ms total)
T4508 003:489 JLINK_ReadReg(FPS24)  returns 0x00000000 (0000ms, 1833ms total)
T4508 003:489 JLINK_ReadReg(FPS25)  returns 0x00000000 (0000ms, 1833ms total)
T4508 003:489 JLINK_ReadReg(FPS26)  returns 0x00000000 (0000ms, 1833ms total)
T4508 003:489 JLINK_ReadReg(FPS27)  returns 0x00000000 (0000ms, 1833ms total)
T4508 003:489 JLINK_ReadReg(FPS28)  returns 0x00000000 (0000ms, 1833ms total)
T4508 003:489 JLINK_ReadReg(FPS29)  returns 0x00000000 (0000ms, 1833ms total)
T4508 003:489 JLINK_ReadReg(FPS30)  returns 0x00000000 (0000ms, 1833ms total)
T4508 003:489 JLINK_ReadReg(FPS31)  returns 0x00000000 (0000ms, 1833ms total)
T2BF0 003:944 JLINK_ReadMem (0x08004D7A, 0x0002 Bytes, ...) -- CPU_ReadMem(64 bytes @ 0x08004D40) -- Updating C cache (64 bytes @ 0x08004D40) -- Read from C cache (2 bytes @ 0x08004D7A) - Data: 00 24  returns 0x00 (0005ms, 1838ms total)
T2BF0 003:949 JLINK_ReadMem (0x08004D7C, 0x003C Bytes, ...) -- CPU_ReadMem(64 bytes @ 0x08004D80) -- Updating C cache (64 bytes @ 0x08004D80) -- Read from C cache (60 bytes @ 0x08004D7C) - Data: 04 E0 5D F8 24 00 FF F7 78 F9 64 1C 03 2C F8 DB ...  returns 0x00 (0004ms, 1842ms total)
T4508 006:734 JLINK_SetBPEx(Addr = 0x08004D7A, Type = 0xFFFFFFF2)  returns 0x00000005 (0000ms, 1842ms total)
T4508 006:734 JLINK_SetBPEx(Addr = 0x0800504E, Type = 0xFFFFFFF2)  returns 0x00000006 (0000ms, 1842ms total)
T4508 006:734 JLINK_SetBPEx(Addr = 0x08005040, Type = 0xFFFFFFF2)  returns 0x00000007 (0000ms, 1842ms total)
T4508 006:734 JLINK_Go() -- CPU_WriteMem(4 bytes @ 0xE0002000) -- CPU_WriteMem(4 bytes @ 0xE0002000) -- CPU_WriteMem(4 bytes @ 0xE0002000) -- CPU_ReadMem(4 bytes @ 0xE0001000) -- CPU_WriteMem(4 bytes @ 0xE0002008) -- CPU_WriteMem(4 bytes @ 0xE000200C) -- CPU_WriteMem(4 bytes @ 0xE0002010) -- CPU_WriteMem(4 bytes @ 0xE0002014) (0016ms, 1858ms total)
T4508 006:851 JLINK_IsHalted()  returns TRUE (0014ms, 1872ms total)
T4508 006:865 JLINK_Halt()  returns 0x00 (0000ms, 1858ms total)
T4508 006:865 JLINK_IsHalted()  returns TRUE (0000ms, 1858ms total)
T4508 006:865 JLINK_IsHalted()  returns TRUE (0000ms, 1858ms total)
T4508 006:865 JLINK_IsHalted()  returns TRUE (0000ms, 1858ms total)
T4508 006:865 JLINK_ReadReg(R15 (PC))  returns 0x08005040 (0000ms, 1858ms total)
T4508 006:865 JLINK_ReadReg(XPSR)  returns 0x21000000 (0000ms, 1858ms total)
T4508 006:865 JLINK_ClrBPEx(BPHandle = 0x00000005)  returns 0x00 (0000ms, 1858ms total)
T4508 006:865 JLINK_ClrBPEx(BPHandle = 0x00000006)  returns 0x00 (0000ms, 1858ms total)
T4508 006:865 JLINK_ClrBPEx(BPHandle = 0x00000007)  returns 0x00 (0000ms, 1858ms total)
T4508 006:865 JLINK_ReadMemU32(0xE000ED30, 0x0001 Items, ...) -- CPU_ReadMem(4 bytes @ 0xE000ED30) - Data: 03 00 00 00  returns 0x01 (0002ms, 1860ms total)
T4508 006:867 JLINK_ReadMemU32(0xE0001028, 0x0001 Items, ...) -- CPU_ReadMem(4 bytes @ 0xE0001028) - Data: 00 00 00 00  returns 0x01 (0001ms, 1861ms total)
T4508 006:868 JLINK_ReadMemU32(0xE0001038, 0x0001 Items, ...) -- CPU_ReadMem(4 bytes @ 0xE0001038) - Data: 00 02 00 00  returns 0x01 (0002ms, 1863ms total)
T4508 006:870 JLINK_ReadMemU32(0xE0001048, 0x0001 Items, ...) -- CPU_ReadMem(4 bytes @ 0xE0001048) - Data: 00 00 00 00  returns 0x01 (0001ms, 1864ms total)
T4508 006:871 JLINK_ReadMemU32(0xE0001058, 0x0001 Items, ...) -- CPU_ReadMem(4 bytes @ 0xE0001058) - Data: 00 00 00 00  returns 0x01 (0002ms, 1866ms total)
T4508 006:873 JLINK_ReadReg(R0)  returns 0x20000A78 (0000ms, 1866ms total)
T4508 006:873 JLINK_ReadReg(R1)  returns 0x20000008 (0000ms, 1866ms total)
T4508 006:873 JLINK_ReadReg(R2)  returns 0x00000000 (0000ms, 1866ms total)
T4508 006:873 JLINK_ReadReg(R3)  returns 0x00000000 (0000ms, 1866ms total)
T4508 006:873 JLINK_ReadReg(R4)  returns 0x08006CC0 (0000ms, 1866ms total)
T4508 006:873 JLINK_ReadReg(R5)  returns 0x08006CC0 (0000ms, 1866ms total)
T4508 006:873 JLINK_ReadReg(R6)  returns 0x00000000 (0000ms, 1866ms total)
T4508 006:873 JLINK_ReadReg(R7)  returns 0x00000000 (0000ms, 1866ms total)
T4508 006:873 JLINK_ReadReg(R8)  returns 0x00000000 (0000ms, 1866ms total)
T4508 006:873 JLINK_ReadReg(R9)  returns 0x00000000 (0000ms, 1866ms total)
T4508 006:873 JLINK_ReadReg(R10)  returns 0x00000000 (0000ms, 1866ms total)
T4508 006:873 JLINK_ReadReg(R11)  returns 0x00000000 (0000ms, 1866ms total)
T4508 006:873 JLINK_ReadReg(R12)  returns 0x00000001 (0000ms, 1866ms total)
T4508 006:873 JLINK_ReadReg(R13 (SP))  returns 0x200083A0 (0001ms, 1867ms total)
T4508 006:874 JLINK_ReadReg(R14)  returns 0x080061A7 (0000ms, 1867ms total)
T4508 006:874 JLINK_ReadReg(R15 (PC))  returns 0x08005040 (0000ms, 1867ms total)
T4508 006:874 JLINK_ReadReg(XPSR)  returns 0x21000000 (0000ms, 1867ms total)
T4508 006:874 JLINK_ReadReg(MSP)  returns 0x200083A0 (0000ms, 1867ms total)
T4508 006:874 JLINK_ReadReg(PSP)  returns 0x00000000 (0000ms, 1867ms total)
T4508 006:874 JLINK_ReadReg(CFBP)  returns 0x00005000 (0000ms, 1867ms total)
T4508 006:874 JLINK_ReadReg(FPSCR)  returns 0x00000000 (0021ms, 1888ms total)
T4508 006:895 JLINK_ReadReg(FPS0)  returns 0x00000000 (0000ms, 1888ms total)
T4508 006:895 JLINK_ReadReg(FPS1)  returns 0x00000000 (0000ms, 1888ms total)
T4508 006:895 JLINK_ReadReg(FPS2)  returns 0x00000000 (0000ms, 1888ms total)
T4508 006:895 JLINK_ReadReg(FPS3)  returns 0x00000000 (0000ms, 1888ms total)
T4508 006:895 JLINK_ReadReg(FPS4)  returns 0x00000000 (0000ms, 1888ms total)
T4508 006:895 JLINK_ReadReg(FPS5)  returns 0x00000000 (0000ms, 1888ms total)
T4508 006:895 JLINK_ReadReg(FPS6)  returns 0x00000000 (0000ms, 1888ms total)
T4508 006:896 JLINK_ReadReg(FPS7)  returns 0x00000000 (0000ms, 1889ms total)
T4508 006:896 JLINK_ReadReg(FPS8)  returns 0x00000000 (0000ms, 1889ms total)
T4508 006:896 JLINK_ReadReg(FPS9)  returns 0x00000000 (0000ms, 1889ms total)
T4508 006:896 JLINK_ReadReg(FPS10)  returns 0x00000000 (0000ms, 1889ms total)
T4508 006:896 JLINK_ReadReg(FPS11)  returns 0x00000000 (0000ms, 1889ms total)
T4508 006:896 JLINK_ReadReg(FPS12)  returns 0x00000000 (0000ms, 1889ms total)
T4508 006:896 JLINK_ReadReg(FPS13)  returns 0x00000000 (0000ms, 1889ms total)
T4508 006:896 JLINK_ReadReg(FPS14)  returns 0x00000000 (0000ms, 1889ms total)
T4508 006:896 JLINK_ReadReg(FPS15)  returns 0x00000000 (0000ms, 1889ms total)
T4508 006:896 JLINK_ReadReg(FPS16)  returns 0x00000000 (0000ms, 1889ms total)
T4508 006:896 JLINK_ReadReg(FPS17)  returns 0x00000000 (0000ms, 1889ms total)
T4508 006:896 JLINK_ReadReg(FPS18)  returns 0x00000000 (0000ms, 1889ms total)
T4508 006:896 JLINK_ReadReg(FPS19)  returns 0x00000000 (0000ms, 1889ms total)
T4508 006:896 JLINK_ReadReg(FPS20)  returns 0x00000000 (0000ms, 1889ms total)
T4508 006:896 JLINK_ReadReg(FPS21)  returns 0x00000000 (0000ms, 1889ms total)
T4508 006:896 JLINK_ReadReg(FPS22)  returns 0x00000000 (0000ms, 1889ms total)
T4508 006:896 JLINK_ReadReg(FPS23)  returns 0x00000000 (0000ms, 1889ms total)
T4508 006:896 JLINK_ReadReg(FPS24)  returns 0x00000000 (0000ms, 1889ms total)
T4508 006:896 JLINK_ReadReg(FPS25)  returns 0x00000000 (0000ms, 1889ms total)
T4508 006:896 JLINK_ReadReg(FPS26)  returns 0x00000000 (0000ms, 1889ms total)
T4508 006:896 JLINK_ReadReg(FPS27)  returns 0x00000000 (0000ms, 1889ms total)
T4508 006:896 JLINK_ReadReg(FPS28)  returns 0x00000000 (0000ms, 1889ms total)
T4508 006:896 JLINK_ReadReg(FPS29)  returns 0x00000000 (0000ms, 1889ms total)
T4508 006:896 JLINK_ReadReg(FPS30)  returns 0x00000000 (0000ms, 1889ms total)
T4508 006:896 JLINK_ReadReg(FPS31)  returns 0x00000000 (0000ms, 1889ms total)
T4508 008:688 JLINK_Step() -- CPU_ReadMem(64 bytes @ 0x08005040) -- Updating C cache (64 bytes @ 0x08005040) -- Read from C cache (2 bytes @ 0x08005040) -- CPU_ReadMem(4 bytes @ 0xE000ED18) -- CPU_WriteMem(4 bytes @ 0xE000ED18) -- CPU_ReadMem(4 bytes @ 0xE000ED18) -- CPU_WriteMem(4 bytes @ 0xE000ED18) -- CPU_ReadMem(4 bytes @ 0xE0001004) -- Read from C cache (2 bytes @ 0x08005042) -- Simulated  returns 0x00 (0014ms, 1903ms total)
T4508 008:703 JLINK_ReadReg(R15 (PC))  returns 0x08004B54 (0000ms, 1903ms total)
T4508 008:703 JLINK_ReadReg(XPSR)  returns 0x21000000 (0000ms, 1903ms total)
T4508 008:703 JLINK_SetBPEx(Addr = 0x08004D7A, Type = 0xFFFFFFF2)  returns 0x00000008 (0000ms, 1903ms total)
T4508 008:703 JLINK_SetBPEx(Addr = 0x0800504E, Type = 0xFFFFFFF2)  returns 0x00000009 (0000ms, 1903ms total)
T4508 008:703 JLINK_SetBPEx(Addr = 0x08005040, Type = 0xFFFFFFF2)  returns 0x0000000A (0000ms, 1903ms total)
T4508 008:703 JLINK_Go() -- CPU_WriteMem(4 bytes @ 0xE0002000) -- CPU_WriteMem(4 bytes @ 0xE0002000) -- CPU_WriteMem(4 bytes @ 0xE0002000) -- CPU_ReadMem(4 bytes @ 0xE0001000) -- CPU_WriteMem(4 bytes @ 0xE0001004) (0014ms, 1917ms total)
T4508 008:817 JLINK_IsHalted()  returns FALSE (0002ms, 1919ms total)
T4508 008:919 JLINK_IsHalted()  returns FALSE (0002ms, 1919ms total)
T4508 009:022 JLINK_IsHalted()  returns FALSE (0002ms, 1919ms total)
T4508 009:124 JLINK_IsHalted()  returns FALSE (0001ms, 1918ms total)
T4508 009:227 JLINK_IsHalted()  returns FALSE (0002ms, 1919ms total)
T4508 009:329 JLINK_ReadMemU32(0xE0001004, 0x0001 Items, ...) -- CPU is running -- CPU_ReadMem(4 bytes @ 0xE0001004) - Data: 73 41 F9 02  returns 0x01 (0001ms, 1918ms total)
T4508 009:331 JLINK_IsHalted()  returns FALSE (0001ms, 1919ms total)
T4508 009:433 JLINK_IsHalted()  returns FALSE (0002ms, 1920ms total)
T4508 009:536 JLINK_IsHalted()  returns FALSE (0001ms, 1919ms total)
T4508 009:638 JLINK_IsHalted()  returns FALSE (0001ms, 1919ms total)
T4508 009:740 JLINK_IsHalted()  returns FALSE (0002ms, 1920ms total)
T4508 009:842 JLINK_ReadMemU32(0xE0001004, 0x0001 Items, ...) -- CPU is running - Data: 73 41 F9 02  returns 0x01 (0000ms, 1918ms total)
T4508 009:842 JLINK_IsHalted()  returns FALSE (0002ms, 1920ms total)
T4508 009:945 JLINK_IsHalted()  returns FALSE (0001ms, 1919ms total)
T4508 010:046 JLINK_IsHalted()  returns FALSE (0001ms, 1919ms total)
T4508 010:148 JLINK_IsHalted()  returns FALSE (0002ms, 1920ms total)
T4508 010:251 JLINK_IsHalted()  returns FALSE (0001ms, 1919ms total)
T4508 010:353 JLINK_IsHalted()  returns TRUE (0014ms, 1932ms total)
T4508 010:367 JLINK_Halt()  returns 0x00 (0000ms, 1918ms total)
T4508 010:367 JLINK_IsHalted()  returns TRUE (0000ms, 1918ms total)
T4508 010:367 JLINK_IsHalted()  returns TRUE (0000ms, 1918ms total)
T4508 010:367 JLINK_IsHalted()  returns TRUE (0000ms, 1918ms total)
T4508 010:367 JLINK_ReadReg(R15 (PC))  returns 0x08004D7A (0000ms, 1918ms total)
T4508 010:367 JLINK_ReadReg(XPSR)  returns 0x61000000 (0000ms, 1918ms total)
T4508 010:367 JLINK_ClrBPEx(BPHandle = 0x00000008)  returns 0x00 (0000ms, 1918ms total)
T4508 010:367 JLINK_ClrBPEx(BPHandle = 0x00000009)  returns 0x00 (0000ms, 1918ms total)
T4508 010:367 JLINK_ClrBPEx(BPHandle = 0x0000000A)  returns 0x00 (0000ms, 1918ms total)
T4508 010:367 JLINK_ReadMemU32(0xE000ED30, 0x0001 Items, ...) -- CPU_ReadMem(4 bytes @ 0xE000ED30) - Data: 03 00 00 00  returns 0x01 (0002ms, 1920ms total)
T4508 010:369 JLINK_ReadMemU32(0xE0001028, 0x0001 Items, ...) -- CPU_ReadMem(4 bytes @ 0xE0001028) - Data: 00 00 00 00  returns 0x01 (0002ms, 1922ms total)
T4508 010:371 JLINK_ReadMemU32(0xE0001038, 0x0001 Items, ...) -- CPU_ReadMem(4 bytes @ 0xE0001038) - Data: 00 02 00 00  returns 0x01 (0001ms, 1923ms total)
T4508 010:372 JLINK_ReadMemU32(0xE0001048, 0x0001 Items, ...) -- CPU_ReadMem(4 bytes @ 0xE0001048) - Data: 00 00 00 00  returns 0x01 (0002ms, 1925ms total)
T4508 010:374 JLINK_ReadMemU32(0xE0001058, 0x0001 Items, ...) -- CPU_ReadMem(4 bytes @ 0xE0001058) - Data: 00 00 00 00  returns 0x01 (0001ms, 1926ms total)
T4508 010:375 JLINK_ReadReg(R0)  returns 0x00000002 (0000ms, 1926ms total)
T4508 010:375 JLINK_ReadReg(R1)  returns 0x20007790 (0000ms, 1926ms total)
T4508 010:375 JLINK_ReadReg(R2)  returns 0x00000400 (0000ms, 1926ms total)
T4508 010:375 JLINK_ReadReg(R3)  returns 0x00000400 (0000ms, 1926ms total)
T4508 010:375 JLINK_ReadReg(R4)  returns 0x00000003 (0001ms, 1927ms total)
T4508 010:376 JLINK_ReadReg(R5)  returns 0x08006CC0 (0000ms, 1927ms total)
T4508 010:376 JLINK_ReadReg(R6)  returns 0x00000000 (0000ms, 1927ms total)
T4508 010:376 JLINK_ReadReg(R7)  returns 0x00000000 (0000ms, 1927ms total)
T4508 010:376 JLINK_ReadReg(R8)  returns 0x00000000 (0000ms, 1927ms total)
T4508 010:376 JLINK_ReadReg(R9)  returns 0x00000000 (0000ms, 1927ms total)
T4508 010:376 JLINK_ReadReg(R10)  returns 0x00000000 (0000ms, 1927ms total)
T4508 010:376 JLINK_ReadReg(R11)  returns 0x00000000 (0000ms, 1927ms total)
T4508 010:376 JLINK_ReadReg(R12)  returns 0x00000000 (0000ms, 1927ms total)
T4508 010:376 JLINK_ReadReg(R13 (SP))  returns 0x20007B98 (0000ms, 1927ms total)
T4508 010:376 JLINK_ReadReg(R14)  returns 0x080009D5 (0000ms, 1927ms total)
T4508 010:376 JLINK_ReadReg(R15 (PC))  returns 0x08004D7A (0000ms, 1927ms total)
T4508 010:376 JLINK_ReadReg(XPSR)  returns 0x61000000 (0000ms, 1927ms total)
T4508 010:376 JLINK_ReadReg(MSP)  returns 0x20007B98 (0000ms, 1927ms total)
T4508 010:376 JLINK_ReadReg(PSP)  returns 0x00000000 (0000ms, 1927ms total)
T4508 010:376 JLINK_ReadReg(CFBP)  returns 0x00005000 (0000ms, 1927ms total)
T4508 010:376 JLINK_ReadReg(FPSCR)  returns 0x00000000 (0022ms, 1949ms total)
T4508 010:398 JLINK_ReadReg(FPS0)  returns 0x00000000 (0000ms, 1949ms total)
T4508 010:398 JLINK_ReadReg(FPS1)  returns 0x00000000 (0000ms, 1949ms total)
T4508 010:398 JLINK_ReadReg(FPS2)  returns 0x00000000 (0000ms, 1949ms total)
T4508 010:398 JLINK_ReadReg(FPS3)  returns 0x00000000 (0000ms, 1949ms total)
T4508 010:398 JLINK_ReadReg(FPS4)  returns 0x00000000 (0000ms, 1949ms total)
T4508 010:398 JLINK_ReadReg(FPS5)  returns 0x00000000 (0000ms, 1949ms total)
T4508 010:398 JLINK_ReadReg(FPS6)  returns 0x00000000 (0000ms, 1949ms total)
T4508 010:398 JLINK_ReadReg(FPS7)  returns 0x00000000 (0000ms, 1949ms total)
T4508 010:398 JLINK_ReadReg(FPS8)  returns 0x00000000 (0000ms, 1949ms total)
T4508 010:398 JLINK_ReadReg(FPS9)  returns 0x00000000 (0000ms, 1949ms total)
T4508 010:398 JLINK_ReadReg(FPS10)  returns 0x00000000 (0000ms, 1949ms total)
T4508 010:398 JLINK_ReadReg(FPS11)  returns 0x00000000 (0000ms, 1949ms total)
T4508 010:398 JLINK_ReadReg(FPS12)  returns 0x00000000 (0000ms, 1949ms total)
T4508 010:398 JLINK_ReadReg(FPS13)  returns 0x00000000 (0000ms, 1949ms total)
T4508 010:398 JLINK_ReadReg(FPS14)  returns 0x00000000 (0000ms, 1949ms total)
T4508 010:398 JLINK_ReadReg(FPS15)  returns 0x00000000 (0000ms, 1949ms total)
T4508 010:398 JLINK_ReadReg(FPS16)  returns 0x00000000 (0000ms, 1949ms total)
T4508 010:398 JLINK_ReadReg(FPS17)  returns 0x00000000 (0000ms, 1949ms total)
T4508 010:398 JLINK_ReadReg(FPS18)  returns 0x00000000 (0000ms, 1949ms total)
T4508 010:398 JLINK_ReadReg(FPS19)  returns 0x00000000 (0000ms, 1949ms total)
T4508 010:398 JLINK_ReadReg(FPS20)  returns 0x00000000 (0000ms, 1949ms total)
T4508 010:398 JLINK_ReadReg(FPS21)  returns 0x00000000 (0000ms, 1949ms total)
T4508 010:398 JLINK_ReadReg(FPS22)  returns 0x00000000 (0000ms, 1949ms total)
T4508 010:398 JLINK_ReadReg(FPS23)  returns 0x00000000 (0000ms, 1949ms total)
T4508 010:398 JLINK_ReadReg(FPS24)  returns 0x00000000 (0000ms, 1949ms total)
T4508 010:398 JLINK_ReadReg(FPS25)  returns 0x00000000 (0000ms, 1949ms total)
T4508 010:398 JLINK_ReadReg(FPS26)  returns 0x00000000 (0000ms, 1949ms total)
T4508 010:398 JLINK_ReadReg(FPS27)  returns 0x00000000 (0000ms, 1949ms total)
T4508 010:398 JLINK_ReadReg(FPS28)  returns 0x00000000 (0000ms, 1949ms total)
T4508 010:398 JLINK_ReadReg(FPS29)  returns 0x00000000 (0000ms, 1949ms total)
T4508 010:398 JLINK_ReadReg(FPS30)  returns 0x00000000 (0000ms, 1949ms total)
T4508 010:398 JLINK_ReadReg(FPS31)  returns 0x00000000 (0000ms, 1949ms total)
T2BF0 010:399 JLINK_ReadMem (0x2000839C, 0x0004 Bytes, ...) -- CPU_ReadMem(4 bytes @ 0x2000839C) - Data: 49 50 00 08  returns 0x00 (0001ms, 1950ms total)
T2BF0 010:400 JLINK_ReadMem (0x20008398, 0x0004 Bytes, ...) -- CPU_ReadMem(4 bytes @ 0x20008398) - Data: C0 6C 00 08  returns 0x00 (0003ms, 1953ms total)
T2BF0 010:412 JLINK_ReadMem (0x08004D7A, 0x0002 Bytes, ...) -- CPU_ReadMem(64 bytes @ 0x08004D40) -- Updating C cache (64 bytes @ 0x08004D40) -- Read from C cache (2 bytes @ 0x08004D7A) - Data: 00 24  returns 0x00 (0004ms, 1957ms total)
T2BF0 010:416 JLINK_ReadMem (0x08004D7C, 0x003C Bytes, ...) -- CPU_ReadMem(64 bytes @ 0x08004D80) -- Updating C cache (64 bytes @ 0x08004D80) -- Read from C cache (60 bytes @ 0x08004D7C) - Data: 04 E0 5D F8 24 00 FF F7 78 F9 64 1C 03 2C F8 DB ...  returns 0x00 (0005ms, 1962ms total)
T4508 013:397 JLINK_Step() -- Read from C cache (2 bytes @ 0x08004D7A) -- Simulated  returns 0x00 (0002ms, 1964ms total)
T4508 013:399 JLINK_ReadReg(R15 (PC))  returns 0x08004D7C (0000ms, 1964ms total)
T4508 013:399 JLINK_ReadReg(XPSR)  returns 0x61000000 (0000ms, 1964ms total)
T4508 013:399 JLINK_ReadReg(R0)  returns 0x00000002 (0000ms, 1964ms total)
T4508 013:399 JLINK_ReadReg(R1)  returns 0x20007790 (0000ms, 1964ms total)
T4508 013:399 JLINK_ReadReg(R2)  returns 0x00000400 (0000ms, 1964ms total)
T4508 013:399 JLINK_ReadReg(R3)  returns 0x00000400 (0000ms, 1964ms total)
T4508 013:399 JLINK_ReadReg(R4)  returns 0x00000000 (0000ms, 1964ms total)
T4508 013:399 JLINK_ReadReg(R5)  returns 0x08006CC0 (0000ms, 1964ms total)
T4508 013:399 JLINK_ReadReg(R6)  returns 0x00000000 (0000ms, 1964ms total)
T4508 013:399 JLINK_ReadReg(R7)  returns 0x00000000 (0000ms, 1964ms total)
T4508 013:399 JLINK_ReadReg(R8)  returns 0x00000000 (0000ms, 1964ms total)
T4508 013:399 JLINK_ReadReg(R9)  returns 0x00000000 (0000ms, 1964ms total)
T4508 013:399 JLINK_ReadReg(R10)  returns 0x00000000 (0000ms, 1964ms total)
T4508 013:399 JLINK_ReadReg(R11)  returns 0x00000000 (0000ms, 1964ms total)
T4508 013:399 JLINK_ReadReg(R12)  returns 0x00000000 (0000ms, 1964ms total)
T4508 013:399 JLINK_ReadReg(R13 (SP))  returns 0x20007B98 (0000ms, 1964ms total)
T4508 013:399 JLINK_ReadReg(R14)  returns 0x080009D5 (0000ms, 1964ms total)
T4508 013:399 JLINK_ReadReg(R15 (PC))  returns 0x08004D7C (0000ms, 1964ms total)
T4508 013:399 JLINK_ReadReg(XPSR)  returns 0x61000000 (0000ms, 1964ms total)
T4508 013:399 JLINK_ReadReg(MSP)  returns 0x20007B98 (0000ms, 1964ms total)
T4508 013:399 JLINK_ReadReg(PSP)  returns 0x00000000 (0000ms, 1964ms total)
T4508 013:399 JLINK_ReadReg(CFBP)  returns 0x00005000 (0000ms, 1964ms total)
T4508 013:399 JLINK_ReadReg(FPSCR)  returns 0x00000000 (0000ms, 1964ms total)
T4508 013:399 JLINK_ReadReg(FPS0)  returns 0x00000000 (0000ms, 1964ms total)
T4508 013:399 JLINK_ReadReg(FPS1)  returns 0x00000000 (0000ms, 1964ms total)
T4508 013:399 JLINK_ReadReg(FPS2)  returns 0x00000000 (0000ms, 1964ms total)
T4508 013:399 JLINK_ReadReg(FPS3)  returns 0x00000000 (0000ms, 1964ms total)
T4508 013:399 JLINK_ReadReg(FPS4)  returns 0x00000000 (0000ms, 1964ms total)
T4508 013:399 JLINK_ReadReg(FPS5)  returns 0x00000000 (0000ms, 1964ms total)
T4508 013:399 JLINK_ReadReg(FPS6)  returns 0x00000000 (0000ms, 1964ms total)
T4508 013:399 JLINK_ReadReg(FPS7)  returns 0x00000000 (0000ms, 1964ms total)
T4508 013:399 JLINK_ReadReg(FPS8)  returns 0x00000000 (0000ms, 1964ms total)
T4508 013:399 JLINK_ReadReg(FPS9)  returns 0x00000000 (0000ms, 1964ms total)
T4508 013:399 JLINK_ReadReg(FPS10)  returns 0x00000000 (0000ms, 1964ms total)
T4508 013:399 JLINK_ReadReg(FPS11)  returns 0x00000000 (0000ms, 1964ms total)
T4508 013:399 JLINK_ReadReg(FPS12)  returns 0x00000000 (0000ms, 1964ms total)
T4508 013:399 JLINK_ReadReg(FPS13)  returns 0x00000000 (0001ms, 1965ms total)
T4508 013:400 JLINK_ReadReg(FPS14)  returns 0x00000000 (0000ms, 1965ms total)
T4508 013:400 JLINK_ReadReg(FPS15)  returns 0x00000000 (0000ms, 1965ms total)
T4508 013:400 JLINK_ReadReg(FPS16)  returns 0x00000000 (0000ms, 1965ms total)
T4508 013:400 JLINK_ReadReg(FPS17)  returns 0x00000000 (0000ms, 1965ms total)
T4508 013:400 JLINK_ReadReg(FPS18)  returns 0x00000000 (0000ms, 1965ms total)
T4508 013:400 JLINK_ReadReg(FPS19)  returns 0x00000000 (0000ms, 1965ms total)
T4508 013:400 JLINK_ReadReg(FPS20)  returns 0x00000000 (0000ms, 1965ms total)
T4508 013:400 JLINK_ReadReg(FPS21)  returns 0x00000000 (0000ms, 1965ms total)
T4508 013:400 JLINK_ReadReg(FPS22)  returns 0x00000000 (0000ms, 1965ms total)
T4508 013:400 JLINK_ReadReg(FPS23)  returns 0x00000000 (0000ms, 1965ms total)
T4508 013:400 JLINK_ReadReg(FPS24)  returns 0x00000000 (0000ms, 1965ms total)
T4508 013:400 JLINK_ReadReg(FPS25)  returns 0x00000000 (0000ms, 1965ms total)
T4508 013:400 JLINK_ReadReg(FPS26)  returns 0x00000000 (0000ms, 1965ms total)
T4508 013:400 JLINK_ReadReg(FPS27)  returns 0x00000000 (0000ms, 1965ms total)
T4508 013:400 JLINK_ReadReg(FPS28)  returns 0x00000000 (0000ms, 1965ms total)
T4508 013:400 JLINK_ReadReg(FPS29)  returns 0x00000000 (0000ms, 1965ms total)
T4508 013:400 JLINK_ReadReg(FPS30)  returns 0x00000000 (0000ms, 1965ms total)
T4508 013:400 JLINK_ReadReg(FPS31)  returns 0x00000000 (0000ms, 1965ms total)
T2BF0 013:400 JLINK_ReadMem (0x2000839C, 0x0004 Bytes, ...) -- CPU_ReadMem(4 bytes @ 0x2000839C) - Data: 49 50 00 08  returns 0x00 (0002ms, 1967ms total)
T2BF0 013:402 JLINK_ReadMem (0x20008398, 0x0004 Bytes, ...) -- CPU_ReadMem(4 bytes @ 0x20008398) - Data: C0 6C 00 08  returns 0x00 (0002ms, 1969ms total)
T2BF0 013:408 JLINK_ReadMem (0x08004D7C, 0x003C Bytes, ...) -- Read from C cache (60 bytes @ 0x08004D7C) - Data: 04 E0 5D F8 24 00 FF F7 78 F9 64 1C 03 2C F8 DB ...  returns 0x00 (0000ms, 1969ms total)
T4508 013:909 JLINK_Step() -- Read from C cache (2 bytes @ 0x08004D7C) -- Simulated  returns 0x00 (0001ms, 1970ms total)
T4508 013:910 JLINK_ReadReg(R15 (PC))  returns 0x08004D88 (0000ms, 1970ms total)
T4508 013:910 JLINK_ReadReg(XPSR)  returns 0x61000000 (0000ms, 1970ms total)
T4508 013:910 JLINK_ReadReg(R0)  returns 0x00000002 (0000ms, 1970ms total)
T4508 013:910 JLINK_ReadReg(R1)  returns 0x20007790 (0000ms, 1970ms total)
T4508 013:910 JLINK_ReadReg(R2)  returns 0x00000400 (0000ms, 1970ms total)
T4508 013:910 JLINK_ReadReg(R3)  returns 0x00000400 (0000ms, 1970ms total)
T4508 013:910 JLINK_ReadReg(R4)  returns 0x00000000 (0000ms, 1970ms total)
T4508 013:910 JLINK_ReadReg(R5)  returns 0x08006CC0 (0000ms, 1970ms total)
T4508 013:910 JLINK_ReadReg(R6)  returns 0x00000000 (0000ms, 1970ms total)
T4508 013:910 JLINK_ReadReg(R7)  returns 0x00000000 (0000ms, 1970ms total)
T4508 013:910 JLINK_ReadReg(R8)  returns 0x00000000 (0000ms, 1970ms total)
T4508 013:910 JLINK_ReadReg(R9)  returns 0x00000000 (0000ms, 1970ms total)
T4508 013:910 JLINK_ReadReg(R10)  returns 0x00000000 (0001ms, 1971ms total)
T4508 013:911 JLINK_ReadReg(R11)  returns 0x00000000 (0000ms, 1971ms total)
T4508 013:911 JLINK_ReadReg(R12)  returns 0x00000000 (0000ms, 1971ms total)
T4508 013:911 JLINK_ReadReg(R13 (SP))  returns 0x20007B98 (0000ms, 1971ms total)
T4508 013:911 JLINK_ReadReg(R14)  returns 0x080009D5 (0000ms, 1971ms total)
T4508 013:911 JLINK_ReadReg(R15 (PC))  returns 0x08004D88 (0000ms, 1971ms total)
T4508 013:911 JLINK_ReadReg(XPSR)  returns 0x61000000 (0000ms, 1971ms total)
T4508 013:911 JLINK_ReadReg(MSP)  returns 0x20007B98 (0000ms, 1971ms total)
T4508 013:911 JLINK_ReadReg(PSP)  returns 0x00000000 (0000ms, 1971ms total)
T4508 013:911 JLINK_ReadReg(CFBP)  returns 0x00005000 (0000ms, 1971ms total)
T4508 013:911 JLINK_ReadReg(FPSCR)  returns 0x00000000 (0000ms, 1971ms total)
T4508 013:911 JLINK_ReadReg(FPS0)  returns 0x00000000 (0000ms, 1971ms total)
T4508 013:911 JLINK_ReadReg(FPS1)  returns 0x00000000 (0000ms, 1971ms total)
T4508 013:911 JLINK_ReadReg(FPS2)  returns 0x00000000 (0000ms, 1971ms total)
T4508 013:911 JLINK_ReadReg(FPS3)  returns 0x00000000 (0000ms, 1971ms total)
T4508 013:911 JLINK_ReadReg(FPS4)  returns 0x00000000 (0000ms, 1971ms total)
T4508 013:911 JLINK_ReadReg(FPS5)  returns 0x00000000 (0000ms, 1971ms total)
T4508 013:911 JLINK_ReadReg(FPS6)  returns 0x00000000 (0000ms, 1971ms total)
T4508 013:911 JLINK_ReadReg(FPS7)  returns 0x00000000 (0000ms, 1971ms total)
T4508 013:911 JLINK_ReadReg(FPS8)  returns 0x00000000 (0000ms, 1971ms total)
T4508 013:911 JLINK_ReadReg(FPS9)  returns 0x00000000 (0000ms, 1971ms total)
T4508 013:911 JLINK_ReadReg(FPS10)  returns 0x00000000 (0000ms, 1971ms total)
T4508 013:911 JLINK_ReadReg(FPS11)  returns 0x00000000 (0000ms, 1971ms total)
T4508 013:911 JLINK_ReadReg(FPS12)  returns 0x00000000 (0000ms, 1971ms total)
T4508 013:911 JLINK_ReadReg(FPS13)  returns 0x00000000 (0000ms, 1971ms total)
T4508 013:911 JLINK_ReadReg(FPS14)  returns 0x00000000 (0000ms, 1971ms total)
T4508 013:911 JLINK_ReadReg(FPS15)  returns 0x00000000 (0000ms, 1971ms total)
T4508 013:911 JLINK_ReadReg(FPS16)  returns 0x00000000 (0000ms, 1971ms total)
T4508 013:911 JLINK_ReadReg(FPS17)  returns 0x00000000 (0000ms, 1971ms total)
T4508 013:911 JLINK_ReadReg(FPS18)  returns 0x00000000 (0000ms, 1971ms total)
T4508 013:911 JLINK_ReadReg(FPS19)  returns 0x00000000 (0000ms, 1971ms total)
T4508 013:911 JLINK_ReadReg(FPS20)  returns 0x00000000 (0000ms, 1971ms total)
T4508 013:911 JLINK_ReadReg(FPS21)  returns 0x00000000 (0000ms, 1971ms total)
T4508 013:911 JLINK_ReadReg(FPS22)  returns 0x00000000 (0000ms, 1971ms total)
T4508 013:911 JLINK_ReadReg(FPS23)  returns 0x00000000 (0000ms, 1971ms total)
T4508 013:911 JLINK_ReadReg(FPS24)  returns 0x00000000 (0000ms, 1971ms total)
T4508 013:911 JLINK_ReadReg(FPS25)  returns 0x00000000 (0000ms, 1971ms total)
T4508 013:911 JLINK_ReadReg(FPS26)  returns 0x00000000 (0000ms, 1971ms total)
T4508 013:911 JLINK_ReadReg(FPS27)  returns 0x00000000 (0000ms, 1971ms total)
T4508 013:911 JLINK_ReadReg(FPS28)  returns 0x00000000 (0000ms, 1971ms total)
T4508 013:911 JLINK_ReadReg(FPS29)  returns 0x00000000 (0000ms, 1971ms total)
T4508 013:911 JLINK_ReadReg(FPS30)  returns 0x00000000 (0000ms, 1971ms total)
T4508 013:911 JLINK_ReadReg(FPS31)  returns 0x00000000 (0000ms, 1971ms total)
T2BF0 013:912 JLINK_ReadMem (0x2000839C, 0x0004 Bytes, ...) -- CPU_ReadMem(4 bytes @ 0x2000839C) - Data: 49 50 00 08  returns 0x00 (0002ms, 1973ms total)
T2BF0 013:914 JLINK_ReadMem (0x20008398, 0x0004 Bytes, ...) -- CPU_ReadMem(4 bytes @ 0x20008398) - Data: C0 6C 00 08  returns 0x00 (0002ms, 1975ms total)
T2BF0 013:919 JLINK_ReadMem (0x08004D88, 0x003C Bytes, ...) -- CPU_ReadMem(64 bytes @ 0x08004DC0) -- Updating C cache (64 bytes @ 0x08004DC0) -- Read from C cache (60 bytes @ 0x08004D88) - Data: 03 2C F8 DB 00 24 0A E0 5D F8 24 00 FB F7 80 FD ...  returns 0x00 (0005ms, 1980ms total)
T4508 014:640 JLINK_Step() -- Read from C cache (2 bytes @ 0x08004D88) -- Simulated  returns 0x00 (0001ms, 1981ms total)
T4508 014:641 JLINK_ReadReg(R15 (PC))  returns 0x08004D8A (0000ms, 1981ms total)
T4508 014:641 JLINK_ReadReg(XPSR)  returns 0x81000000 (0000ms, 1981ms total)
T4508 014:641 JLINK_Step() -- Read from C cache (2 bytes @ 0x08004D8A) -- Simulated  returns 0x00 (0000ms, 1981ms total)
T4508 014:641 JLINK_ReadReg(R15 (PC))  returns 0x08004D7E (0000ms, 1981ms total)
T4508 014:641 JLINK_ReadReg(XPSR)  returns 0x81000000 (0000ms, 1981ms total)
T4508 014:641 JLINK_ReadReg(R0)  returns 0x00000002 (0000ms, 1981ms total)
T4508 014:641 JLINK_ReadReg(R1)  returns 0x20007790 (0000ms, 1981ms total)
T4508 014:641 JLINK_ReadReg(R2)  returns 0x00000400 (0000ms, 1981ms total)
T4508 014:641 JLINK_ReadReg(R3)  returns 0x00000400 (0000ms, 1981ms total)
T4508 014:641 JLINK_ReadReg(R4)  returns 0x00000000 (0000ms, 1981ms total)
T4508 014:641 JLINK_ReadReg(R5)  returns 0x08006CC0 (0000ms, 1981ms total)
T4508 014:641 JLINK_ReadReg(R6)  returns 0x00000000 (0000ms, 1981ms total)
T4508 014:641 JLINK_ReadReg(R7)  returns 0x00000000 (0000ms, 1981ms total)
T4508 014:641 JLINK_ReadReg(R8)  returns 0x00000000 (0000ms, 1981ms total)
T4508 014:642 JLINK_ReadReg(R9)  returns 0x00000000 (0000ms, 1982ms total)
T4508 014:642 JLINK_ReadReg(R10)  returns 0x00000000 (0000ms, 1982ms total)
T4508 014:642 JLINK_ReadReg(R11)  returns 0x00000000 (0000ms, 1982ms total)
T4508 014:642 JLINK_ReadReg(R12)  returns 0x00000000 (0000ms, 1982ms total)
T4508 014:642 JLINK_ReadReg(R13 (SP))  returns 0x20007B98 (0000ms, 1982ms total)
T4508 014:642 JLINK_ReadReg(R14)  returns 0x080009D5 (0000ms, 1982ms total)
T4508 014:642 JLINK_ReadReg(R15 (PC))  returns 0x08004D7E (0000ms, 1982ms total)
T4508 014:642 JLINK_ReadReg(XPSR)  returns 0x81000000 (0000ms, 1982ms total)
T4508 014:642 JLINK_ReadReg(MSP)  returns 0x20007B98 (0000ms, 1982ms total)
T4508 014:642 JLINK_ReadReg(PSP)  returns 0x00000000 (0000ms, 1982ms total)
T4508 014:642 JLINK_ReadReg(CFBP)  returns 0x00005000 (0000ms, 1982ms total)
T4508 014:642 JLINK_ReadReg(FPSCR)  returns 0x00000000 (0000ms, 1982ms total)
T4508 014:642 JLINK_ReadReg(FPS0)  returns 0x00000000 (0000ms, 1982ms total)
T4508 014:642 JLINK_ReadReg(FPS1)  returns 0x00000000 (0000ms, 1982ms total)
T4508 014:642 JLINK_ReadReg(FPS2)  returns 0x00000000 (0000ms, 1982ms total)
T4508 014:642 JLINK_ReadReg(FPS3)  returns 0x00000000 (0000ms, 1982ms total)
T4508 014:642 JLINK_ReadReg(FPS4)  returns 0x00000000 (0000ms, 1982ms total)
T4508 014:642 JLINK_ReadReg(FPS5)  returns 0x00000000 (0000ms, 1982ms total)
T4508 014:642 JLINK_ReadReg(FPS6)  returns 0x00000000 (0000ms, 1982ms total)
T4508 014:642 JLINK_ReadReg(FPS7)  returns 0x00000000 (0000ms, 1982ms total)
T4508 014:642 JLINK_ReadReg(FPS8)  returns 0x00000000 (0000ms, 1982ms total)
T4508 014:642 JLINK_ReadReg(FPS9)  returns 0x00000000 (0000ms, 1982ms total)
T4508 014:642 JLINK_ReadReg(FPS10)  returns 0x00000000 (0000ms, 1982ms total)
T4508 014:642 JLINK_ReadReg(FPS11)  returns 0x00000000 (0000ms, 1982ms total)
T4508 014:642 JLINK_ReadReg(FPS12)  returns 0x00000000 (0000ms, 1982ms total)
T4508 014:642 JLINK_ReadReg(FPS13)  returns 0x00000000 (0000ms, 1982ms total)
T4508 014:642 JLINK_ReadReg(FPS14)  returns 0x00000000 (0000ms, 1982ms total)
T4508 014:642 JLINK_ReadReg(FPS15)  returns 0x00000000 (0000ms, 1982ms total)
T4508 014:642 JLINK_ReadReg(FPS16)  returns 0x00000000 (0000ms, 1982ms total)
T4508 014:642 JLINK_ReadReg(FPS17)  returns 0x00000000 (0000ms, 1982ms total)
T4508 014:642 JLINK_ReadReg(FPS18)  returns 0x00000000 (0000ms, 1982ms total)
T4508 014:642 JLINK_ReadReg(FPS19)  returns 0x00000000 (0000ms, 1982ms total)
T4508 014:642 JLINK_ReadReg(FPS20)  returns 0x00000000 (0000ms, 1982ms total)
T4508 014:642 JLINK_ReadReg(FPS21)  returns 0x00000000 (0000ms, 1982ms total)
T4508 014:642 JLINK_ReadReg(FPS22)  returns 0x00000000 (0000ms, 1982ms total)
T4508 014:642 JLINK_ReadReg(FPS23)  returns 0x00000000 (0000ms, 1982ms total)
T4508 014:642 JLINK_ReadReg(FPS24)  returns 0x00000000 (0000ms, 1982ms total)
T4508 014:642 JLINK_ReadReg(FPS25)  returns 0x00000000 (0000ms, 1982ms total)
T4508 014:642 JLINK_ReadReg(FPS26)  returns 0x00000000 (0000ms, 1982ms total)
T4508 014:642 JLINK_ReadReg(FPS27)  returns 0x00000000 (0000ms, 1982ms total)
T4508 014:642 JLINK_ReadReg(FPS28)  returns 0x00000000 (0000ms, 1982ms total)
T4508 014:642 JLINK_ReadReg(FPS29)  returns 0x00000000 (0000ms, 1982ms total)
T4508 014:642 JLINK_ReadReg(FPS30)  returns 0x00000000 (0000ms, 1982ms total)
T4508 014:642 JLINK_ReadReg(FPS31)  returns 0x00000000 (0000ms, 1982ms total)
T2BF0 014:643 JLINK_ReadMem (0x2000839C, 0x0004 Bytes, ...) -- CPU_ReadMem(4 bytes @ 0x2000839C) - Data: 49 50 00 08  returns 0x00 (0002ms, 1985ms total)
T2BF0 014:645 JLINK_ReadMem (0x20008398, 0x0004 Bytes, ...) -- CPU_ReadMem(4 bytes @ 0x20008398) - Data: C0 6C 00 08  returns 0x00 (0002ms, 1987ms total)
T4508 015:414 JLINK_ReadMem (0x08004D7E, 0x0002 Bytes, ...) -- Read from C cache (2 bytes @ 0x08004D7E) - Data: 5D F8  returns 0x00 (0000ms, 1987ms total)
